
**** 11/21/24 14:29:25 ******* PSpice Lite (March 2016) ******* ID# 10813 ****

 ** Profile: "SCHEMATIC1-oop_amp"  [ F:\ElecCpe240_FolkFolkFolk\w2\oop_amp-pspicefiles\schematic1\oop_amp.sim ] 


 ****     CIRCUIT DESCRIPTION


******************************************************************************




** Creating circuit file "oop_amp.cir" 
** WARNING: THIS AUTOMATICALLY GENERATED FILE MAY BE OVERWRITTEN BY SUBSEQUENT SIMULATIONS

*Libraries: 
* Profile Libraries :
* Local Libraries :
* From [PSPICE NETLIST] section of C:\Users\PC\AppData\Roaming\SPB_Data\cdssetup\OrCAD_PSpice\17.2.0\PSpice.ini file:
.lib "nomd.lib" 

*Analysis directives: 
.TRAN  0 5ms 0 1us 
.OPTIONS ADVCONV
.PROBE64 V(alias(*)) I(alias(*)) W(alias(*)) D(alias(*)) NOISE(alias(*)) 
.INC "..\SCHEMATIC1.net" 



**** INCLUDING SCHEMATIC1.net ****
* source OOP_AMP
Q_Q1         N00366 N00342 N00389 Q2N2222
R_R1         N00366 N00359  1k  
R_R2         0 N00389  270  
R_R3         N00342 N00359  100k  
R_R4         0 N00342  22k  
V_V1         N00359 0 20Vdc
C_C1         N00337 N00342  10u  TC=0,0 
C_C2         N00366 N00380  10u  TC=0,0 
R_R5         0 N00380  10k TC=0,0 
V_V3         N00337 0  
+SIN 0v 0.5v 1k 0 0 0

**** RESUMING oop_amp.cir ****
.END

**** 11/21/24 14:29:25 ******* PSpice Lite (March 2016) ******* ID# 10813 ****

 ** Profile: "SCHEMATIC1-oop_amp"  [ F:\ElecCpe240_FolkFolkFolk\w2\oop_amp-pspicefiles\schematic1\oop_amp.sim ] 


 ****     BJT MODEL PARAMETERS


******************************************************************************




               Q2N2222         
               NPN             
       LEVEL    1            
          IS   14.340000E-15 
          BF  255.9          
          NF    1            
         VAF   74.03         
         IKF     .2847       
         ISE   14.340000E-15 
          NE    1.307        
          BR    6.092        
          NR    1            
         ISS    0            
          RB   10            
          RE    0            
          RC    1            
         CJE   22.010000E-12 
         VJE     .75         
         MJE     .377        
         CJC    7.306000E-12 
         VJC     .75         
         MJC     .3416       
        XCJC    1            
         CJS    0            
         VJS     .75         
          TF  411.100000E-12 
         XTF    3            
         VTF    1.7          
         ITF     .6          
          TR   46.910000E-09 
         XTB    1.5          
          KF    0            
          AF    1            
          CN    2.42         
           D     .87         


**** 11/21/24 14:29:25 ******* PSpice Lite (March 2016) ******* ID# 10813 ****

 ** Profile: "SCHEMATIC1-oop_amp"  [ F:\ElecCpe240_FolkFolkFolk\w2\oop_amp-pspicefiles\schematic1\oop_amp.sim ] 


 ****     INITIAL TRANSIENT SOLUTION       TEMPERATURE =   27.000 DEG C


******************************************************************************



 NODE   VOLTAGE     NODE   VOLTAGE     NODE   VOLTAGE     NODE   VOLTAGE


(N00337)    0.0000 (N00342)    2.8608 (N00359)   20.0000 (N00366)   12.0290     

(N00380)    0.0000 (N00389)    2.1633 




    VOLTAGE SOURCE CURRENTS
    NAME         CURRENT

    V_V1        -8.142E-03
    V_V3         0.000E+00

    TOTAL POWER DISSIPATION   1.63E-01  WATTS



          JOB CONCLUDED

**** 11/21/24 14:29:25 ******* PSpice Lite (March 2016) ******* ID# 10813 ****

 ** Profile: "SCHEMATIC1-oop_amp"  [ F:\ElecCpe240_FolkFolkFolk\w2\oop_amp-pspicefiles\schematic1\oop_amp.sim ] 


 ****     JOB STATISTICS SUMMARY


******************************************************************************



  Total job time (using Solver 1)   =         .17
