
**** 10/24/24 14:37:15 ******* PSpice Lite (March 2016) ******* ID# 10813 ****

 ** Profile: "SCHEMATIC1-oop_ampw2-2"  [ C:\Users\PC\Desktop\ElecCpe240_FolkFolkFolk\oop_ampw2-2-PSpiceFiles\SCHEMATIC1\oop_ampw2-2.s


 ****     CIRCUIT DESCRIPTION


******************************************************************************




** Creating circuit file "oop_ampw2-2.cir" 
** WARNING: THIS AUTOMATICALLY GENERATED FILE MAY BE OVERWRITTEN BY SUBSEQUENT SIMULATIONS

*Libraries: 
* Profile Libraries :
* Local Libraries :
* From [PSPICE NETLIST] section of C:\Users\PC\AppData\Roaming\SPB_Data\cdssetup\OrCAD_PSpice\17.2.0\PSpice.ini file:
.lib "nomd.lib" 

*Analysis directives: 
.TRAN  0 10ms 0 10ns 
.OPTIONS ADVCONV
.PROBE64 V(alias(*)) I(alias(*)) W(alias(*)) D(alias(*)) NOISE(alias(*)) 
.INC "..\SCHEMATIC1.net" 



**** INCLUDING SCHEMATIC1.net ****
* source OOP_AMPW2-2
V_V1         0 N00802 15Vdc
V_V2         N00962 0  
+SIN 0V 0.5V 1k 0 0 0
R_R2         N00782 N00792  10k  
R_R1         0 N00782  20k  
X_U1         N00962 N00782 N00978 N00802 N00792 uA741
V_V3         N00978 0 15Vdc

**** RESUMING oop_ampw2-2.cir ****
.END

**** 10/24/24 14:37:15 ******* PSpice Lite (March 2016) ******* ID# 10813 ****

 ** Profile: "SCHEMATIC1-oop_ampw2-2"  [ C:\Users\PC\Desktop\ElecCpe240_FolkFolkFolk\oop_ampw2-2-PSpiceFiles\SCHEMATIC1\oop_ampw2-2.s


 ****     Diode MODEL PARAMETERS


******************************************************************************




               X_U1.dx         X_U1.dy         
          IS  800.000000E-18  800.000000E-18 
          RS    1               1.000000E-03 
         CJO                   10.000000E-12 


**** 10/24/24 14:37:15 ******* PSpice Lite (March 2016) ******* ID# 10813 ****

 ** Profile: "SCHEMATIC1-oop_ampw2-2"  [ C:\Users\PC\Desktop\ElecCpe240_FolkFolkFolk\oop_ampw2-2-PSpiceFiles\SCHEMATIC1\oop_ampw2-2.s


 ****     BJT MODEL PARAMETERS


******************************************************************************




               X_U1.qx         
               NPN             
       LEVEL    1            
          IS  800.000000E-18 
          BF   93.75         
          NF    1            
          BR    1            
          NR    1            
         ISS    0            
          RE    0            
          RC    0            
         CJE    0            
         VJE     .75         
         CJC    0            
         VJC     .75         
         MJC     .33         
        XCJC    1            
         CJS    0            
         VJS     .75         
          KF    0            
          AF    1            
          CN    2.42         
           D     .87         


**** 10/24/24 14:37:15 ******* PSpice Lite (March 2016) ******* ID# 10813 ****

 ** Profile: "SCHEMATIC1-oop_ampw2-2"  [ C:\Users\PC\Desktop\ElecCpe240_FolkFolkFolk\oop_ampw2-2-PSpiceFiles\SCHEMATIC1\oop_ampw2-2.s


 ****     INITIAL TRANSIENT SOLUTION       TEMPERATURE =   27.000 DEG C


******************************************************************************



 NODE   VOLTAGE     NODE   VOLTAGE     NODE   VOLTAGE     NODE   VOLTAGE


(N00782) 19.25E-06 (N00792) 826.5E-06 (N00802)  -15.0000 (N00962)    0.0000     

(N00978)   15.0000 (X_U1.6)-79.41E-09 (X_U1.7) 830.5E-06 (X_U1.8) 830.5E-06     

(X_U1.9)    0.0000 (X_U1.10)    -.6077                   (X_U1.11)   14.9600    

(X_U1.12)   14.9600                   (X_U1.13)    -.5938                       

(X_U1.14)    -.5938                   (X_U1.53)   14.0000                       

(X_U1.54)  -14.0000                   (X_U1.90) 80.72E-06                       

(X_U1.91)   40.0000                   (X_U1.92)  -40.0000                       

(X_U1.99)    0.0000                   




    VOLTAGE SOURCE CURRENTS
    NAME         CURRENT

    V_V1        -1.667E-03
    V_V2        -7.972E-08
    V_V3        -1.667E-03
    X_U1.vb     -7.941E-13
    X_U1.vc      1.400E-11
    X_U1.ve      1.592E-11
    X_U1.vlim    8.072E-08
    X_U1.vlp    -4.000E-11
    X_U1.vln    -4.000E-11

    TOTAL POWER DISSIPATION   5.00E-02  WATTS



          JOB CONCLUDED

**** 10/24/24 14:37:15 ******* PSpice Lite (March 2016) ******* ID# 10813 ****

 ** Profile: "SCHEMATIC1-oop_ampw2-2"  [ C:\Users\PC\Desktop\ElecCpe240_FolkFolkFolk\oop_ampw2-2-PSpiceFiles\SCHEMATIC1\oop_ampw2-2.s


 ****     JOB STATISTICS SUMMARY


******************************************************************************



  Total job time (using Solver 1)   =       35.61
