
**** 10/10/24 14:22:09 ******* PSpice Lite (March 2016) ******* ID# 10813 ****

 ** Profile: "SCHEMATIC1-ff"  [ C:\Users\PC\Desktop\ElecCpe240_FolkFolkFolk\elec3-pspicefiles\schematic1\ff.sim ] 


 ****     CIRCUIT DESCRIPTION


******************************************************************************




** Creating circuit file "ff.cir" 
** WARNING: THIS AUTOMATICALLY GENERATED FILE MAY BE OVERWRITTEN BY SUBSEQUENT SIMULATIONS

*Libraries: 
* Profile Libraries :
* Local Libraries :
* From [PSPICE NETLIST] section of C:\Users\PC\AppData\Roaming\SPB_Data\cdssetup\OrCAD_PSpice\17.2.0\PSpice.ini file:
.lib "nomd.lib" 

*Analysis directives: 
.TRAN  0 1000ns 0 
.OPTIONS ADVCONV
.PROBE64 V(alias(*)) I(alias(*)) W(alias(*)) D(alias(*)) NOISE(alias(*)) 
.INC "..\SCHEMATIC1.net" 



**** INCLUDING SCHEMATIC1.net ****
* source ELEC3
V_V1         N00144 0 15Vdc
R_R1         N00144 N00161  100k  
R_R2         N00144 N00157  1k  
R_R3         0 N00168  330  
Q_Q1         N00157 N00161 N00168 Q2N2222

**** RESUMING ff.cir ****
.END

**** 10/10/24 14:22:09 ******* PSpice Lite (March 2016) ******* ID# 10813 ****

 ** Profile: "SCHEMATIC1-ff"  [ C:\Users\PC\Desktop\ElecCpe240_FolkFolkFolk\elec3-pspicefiles\schematic1\ff.sim ] 


 ****     BJT MODEL PARAMETERS


******************************************************************************




               Q2N2222         
               NPN             
       LEVEL    1            
          IS   14.340000E-15 
          BF  255.9          
          NF    1            
         VAF   74.03         
         IKF     .2847       
         ISE   14.340000E-15 
          NE    1.307        
          BR    6.092        
          NR    1            
         ISS    0            
          RB   10            
          RE    0            
          RC    1            
         CJE   22.010000E-12 
         VJE     .75         
         MJE     .377        
         CJC    7.306000E-12 
         VJC     .75         
         MJC     .3416       
        XCJC    1            
         CJS    0            
         VJS     .75         
          TF  411.100000E-12 
         XTF    3            
         VTF    1.7          
         ITF     .6          
          TR   46.910000E-09 
         XTB    1.5          
          KF    0            
          AF    1            
          CN    2.42         
           D     .87         


**** 10/10/24 14:22:09 ******* PSpice Lite (March 2016) ******* ID# 10813 ****

 ** Profile: "SCHEMATIC1-ff"  [ C:\Users\PC\Desktop\ElecCpe240_FolkFolkFolk\elec3-pspicefiles\schematic1\ff.sim ] 


 ****     INITIAL TRANSIENT SOLUTION       TEMPERATURE =   27.000 DEG C


******************************************************************************



 NODE   VOLTAGE     NODE   VOLTAGE     NODE   VOLTAGE     NODE   VOLTAGE


(N00144)   15.0000 (N00157)    3.8323 (N00161)    4.4313 (N00168)    3.7202 




    VOLTAGE SOURCE CURRENTS
    NAME         CURRENT

    V_V1        -1.127E-02

    TOTAL POWER DISSIPATION   1.69E-01  WATTS



          JOB CONCLUDED

**** 10/10/24 14:22:09 ******* PSpice Lite (March 2016) ******* ID# 10813 ****

 ** Profile: "SCHEMATIC1-ff"  [ C:\Users\PC\Desktop\ElecCpe240_FolkFolkFolk\elec3-pspicefiles\schematic1\ff.sim ] 


 ****     JOB STATISTICS SUMMARY


******************************************************************************



  Total job time (using Solver 1)   =         .09
